
T0FE0 000:047 SEGGER J-Link V6.10m Log File (0022ms, 0047ms total)
T0FE0 000:047 DLL Compiled: Nov 10 2016 18:41:58 (0022ms, 0047ms total)
T0FE0 000:047 Logging started @ 2017-05-30 18:54 (0022ms, 0047ms total)
T0FE0 000:069 JLINK_SetWarnOutHandler(...) (0000ms, 0047ms total)
T0FE0 000:069 JLINK_OpenEx(...)
Firmware: J-Link V9 compiled Sep  1 2016 18:29:50
Hardware: V9.40
S/N: 59409443
Feature(s): RDI, GDB, FlashDL, FlashBP, JFlashWEBSRV Webserver running on local port 19080 (0014ms, 0061ms total)
T0FE0 000:069   returns O.K. (0014ms, 0061ms total)
T0FE0 000:083 JLINK_SetErrorOutHandler(...) (0000ms, 0061ms total)
T0FE0 000:084 JLINK_ExecCommand("ProjectFile = "E:\大二下\单片机（刘龙）\DPL\test\test9\JLinkSettings.ini"", ...). C:\Program Files (x86)\SEGGER\JLink_V610m\JLinkDevices.xml evaluated successfully.  returns 0x00 (0192ms, 0253ms total)
T0FE0 000:280 JLINK_ExecCommand("Device = LPC1114FBD48/301", ...). Device "LPC1114/301" selected.  returns 0x00 (0004ms, 0257ms total)
T0FE0 000:284 JLINK_ExecCommand("DisableConnectionTimeout", ...).   returns 0x01 (0000ms, 0257ms total)
T0FE0 000:284 JLINK_GetHardwareVersion()  returns 0x16F30 (0000ms, 0257ms total)
T0FE0 000:284 JLINK_GetDLLVersion()  returns 61013 (0000ms, 0257ms total)
T0FE0 000:284 JLINK_GetFirmwareString(...) (0000ms, 0257ms total)
T0FE0 000:291 JLINK_GetDLLVersion()  returns 61013 (0001ms, 0258ms total)
T0FE0 000:292 JLINK_GetCompileDateTime() (0000ms, 0258ms total)
T0FE0 000:297 JLINK_GetFirmwareString(...) (0000ms, 0258ms total)
T0FE0 000:303 JLINK_GetHardwareVersion()  returns 0x16F30 (0000ms, 0258ms total)
T0FE0 000:317 JLINK_TIF_Select(JLINKARM_TIF_SWD)  returns 0x00 (0001ms, 0259ms total)
T0FE0 000:318 JLINK_SetSpeed(5000) (0000ms, 0259ms total)
T0FE0 000:318 JLINK_GetId() >0x108 TIF>Found SWD-DP with ID 0x0BB11477 >0x0D TIF> >0x28 TIF> >0x0D TIF> >0x28 TIF> >0x0D TIF> >0x28 TIF> >0x0D TIF> >0x28 TIF> >0x0D TIF> >0x21 TIF> >0x0D TIF> >0x28 TIF> >0x0D TIF> >0x28 TIF> >0x0D TIF> >0x21 TIF> >0x0D TIF> >0x21 TIF> >0x0D TIF> >0x21 TIF>AP-IDR: 0x04770021, Type: AHB-AP >0x0D TIF> >0x28 TIF> >0x0D TIF> >0x28 TIF> >0x0D TIF> >0x28 TIF> >0x0D TIF> >0x21 TIF> >0x0D TIF> >0x21 TIF> >0x0D TIF> >0x28 TIF> >0x0D TIF> >0x21 TIF> >0x0D TIF> >0x21 TIF>
Found Cortex-M0 r0p0, Little endian. -- CPU_ReadMem(4 bytes @ 0xE000EDF0) -- CPU_WriteMem(4 bytes @ 0xE000EDF0) -- CPU_ReadMem(4 bytes @ 0xE0002000)FPUnit: 4 code (BP) slots and 0 literal slots -- CPU_ReadMem(4 bytes @ 0xE000EDFC) -- CPU_WriteMem(4 bytes @ 0xE000EDFC) -- CPU_ReadMem(4 bytes @ 0xE0001000) -- CPU_WriteMem(4 bytes @ 0xE0001000)CoreSight components:ROMTbl 0 @ E00FF000 -- CPU_ReadMem(16 bytes @ 0xE00FF000) -- CPU_ReadMem(16 bytes @ 0xE000EFF0) -- CPU_ReadMem(16 bytes @ 0xE000EFE0)
ROMTbl 0 [0]: FFF0F000, CID: B105E00D, PID: 000BB008 SCS -- CPU_ReadMem(16 bytes @ 0xE0001FF0) -- CPU_ReadMem(16 bytes @ 0xE0001FE0)ROMTbl 0 [1]: FFF02000, CID: B105E00D, PID: 000BB00A DWT -- CPU_ReadMem(16 bytes @ 0xE0002FF0) -- CPU_ReadMem(16 bytes @ 0xE0002FE0)ROMTbl 0 [2]: FFF03000, CID: B105E00D, PID: 000BB00B FPB >0x0D TIF> >0x21 TIF>  returns 0x0BB11477 (0067ms, 0326ms total)
T0FE0 000:385 JLINK_GetDLLVersion()  returns 61013 (0000ms, 0326ms total)
T0FE0 000:385 JLINK_CORE_GetFound()  returns 0x60000FF (0000ms, 0326ms total)
T0FE0 000:385 JLINK_GetDebugInfo(0x100) -- Value=0xE00FF000  returns 0x00 (0000ms, 0326ms total)
T0FE0 000:391 JLINK_GetDebugInfo(0x100) -- Value=0xE00FF000  returns 0x00 (0000ms, 0326ms total)
T0FE0 000:391 JLINK_GetDebugInfo(0x101) -- Value=0x00000000  returns 0x00 (0000ms, 0326ms total)
T0FE0 000:391 JLINK_ReadMem (0xE0041FF0, 0x0010 Bytes, ...) -- CPU is running -- CPU_ReadMem(16 bytes @ 0xE0041FF0) - Data: 00 00 00 00 00 00 00 00 00 00 00 00 00 00 00 00  returns 0x00 (0000ms, 0326ms total)
T0FE0 000:391 JLINK_GetDebugInfo(0x102) -- Value=0x00000000  returns 0x00 (0000ms, 0326ms total)
T0FE0 000:391 JLINK_GetDebugInfo(0x103) -- Value=0x00000000  returns 0x00 (0000ms, 0326ms total)
T0FE0 000:391 JLINK_ReadMem (0xE0040FF0, 0x0010 Bytes, ...) -- CPU is running -- CPU_ReadMem(16 bytes @ 0xE0040FF0) - Data: 00 00 00 00 00 00 00 00 00 00 00 00 00 00 00 00  returns 0x00 (0001ms, 0327ms total)
T0FE0 000:392 JLINK_GetDebugInfo(0x104) -- Value=0xE0000000  returns 0x00 (0000ms, 0327ms total)
T0FE0 000:392 JLINK_GetDebugInfo(0x105) -- Value=0xE0001000  returns 0x00 (0000ms, 0327ms total)
T0FE0 000:392 JLINK_GetDebugInfo(0x106) -- Value=0xE0002000  returns 0x00 (0000ms, 0327ms total)
T0FE0 000:392 JLINK_GetDebugInfo(0x107) -- Value=0xE000E000  returns 0x00 (0000ms, 0327ms total)
T0FE0 000:392 JLINK_GetDebugInfo(0x10C) -- Value=0xE000EDF0  returns 0x00 (0000ms, 0327ms total)
T0FE0 000:392 JLINK_ReadMemU32(0xE000ED00, 0x0001 Items, ...) -- CPU is running -- CPU_ReadMem(4 bytes @ 0xE000ED00) - Data: 00 C2 0C 41  returns 0x01 (0000ms, 0327ms total)
T0FE0 000:392 JLINK_SetResetType(JLINKARM_RESET_TYPE_NORMAL)  returns JLINKARM_RESET_TYPE_NORMAL (0000ms, 0327ms total)
T0FE0 000:392 JLINK_Reset() -- CPU is running -- CPU_WriteMem(4 bytes @ 0xE000EDF0) -- CPU is running -- CPU_WriteMem(4 bytes @ 0xE000EDFC) >0x35 TIF> -- CPU is running -- CPU_WriteMem(4 bytes @ 0xE000ED0C) -- CPU is running -- CPU_ReadMem(4 bytes @ 0xE000EDF0) -- CPU is running -- CPU_ReadMem(4 bytes @ 0xE000EDF0) -- CPU is running -- CPU_WriteMem(4 bytes @ 0xE000EDF0) -- CPU is running -- CPU_WriteMem(4 bytes @ 0xE000EDFC) -- CPU is running -- CPU_ReadMem(4 bytes @ 0xE000EDF0)
 -- CPU_WriteMem(4 bytes @ 0xE000EDFC) -- CPU_WriteMem(4 bytes @ 0xE000EDFC) -- CPU_WriteMem(4 bytes @ 0xE000EDFC) -- CPU_WriteMem(4 bytes @ 0xE0001020) -- CPU_WriteMem(4 bytes @ 0xE0001024) -- CPU_WriteMem(4 bytes @ 0xE0001028) -- CPU_ReadMem(4 bytes @ 0xE0001000) -- CPU_WriteMem(4 bytes @ 0xE0001000) -- CPU_WriteMem(4 bytes @ 0xE000EDFC) -- CPU_WriteMem(4 bytes @ 0xE0001028) -- CPU_ReadMem(4 bytes @ 0x00000004) -- CPU_ReadMem(4 bytes @ 0xE0002000) -- CPU_ReadMem(4 bytes @ 0xE0002008)
 -- CPU_ReadMem(4 bytes @ 0xE000200C) -- CPU_ReadMem(4 bytes @ 0xE0002010) -- CPU_ReadMem(4 bytes @ 0xE0002014) -- CPU_WriteMem(4 bytes @ 0xE0002000) -- CPU_WriteMem(4 bytes @ 0xE0002008) -- CPU_WriteMem(4 bytes @ 0xE000200C) -- CPU_WriteMem(4 bytes @ 0xE0002010) -- CPU_WriteMem(4 bytes @ 0xE0002014) -- CPU_ReadMem(4 bytes @ 0xE0001000) -- CPU_WriteMem(4 bytes @ 0xE0001000) -- CPU_WriteMem(4 bytes @ 0xE0002000) -- CPU_WriteMem(4 bytes @ 0xE0002008) -- CPU_WriteMem(4 bytes @ 0xE000200C)
 -- CPU_WriteMem(4 bytes @ 0xE0002010) -- CPU_WriteMem(4 bytes @ 0xE0002014) -- CPU_WriteMem(4 bytes @ 0xE0002000) -- CPU_ReadMem(4 bytes @ 0xE000EDFC) -- CPU_ReadMem(4 bytes @ 0xE0001000) -- CPU_WriteMem(4 bytes @ 0xE0001000) (0230ms, 0557ms total)
T0FE0 000:622 JLINK_Halt()  returns 0x00 (0000ms, 0557ms total)
T0FE0 000:622 JLINK_IsHalted()  returns TRUE (0000ms, 0557ms total)
T0FE0 000:622 JLINK_ReadMemU32(0xE000EDF0, 0x0001 Items, ...) -- CPU_ReadMem(4 bytes @ 0xE000EDF0) - Data: 03 00 03 00  returns 0x01 (0000ms, 0557ms total)
T0FE0 000:622 JLINK_WriteU32(0xE000EDF0, 0xA05F0003) -- CPU_WriteMem(4 bytes @ 0xE000EDF0)  returns 0x00 (0001ms, 0558ms total)
T0FE0 000:623 JLINK_WriteU32(0xE000EDFC, 0x01000000) -- CPU_WriteMem(4 bytes @ 0xE000EDFC)  returns 0x00 (0000ms, 0558ms total)
T0FE0 000:632 JLINK_GetHWStatus(...)  returns 0x00 (0000ms, 0558ms total)
T0FE0 000:637 JLINK_GetNumBPUnits(Type = 0xFFFFFF00)  returns 0x04 (0001ms, 0559ms total)
T0FE0 000:638 JLINK_GetNumBPUnits(Type = 0xF0)  returns 0x2000 (0000ms, 0559ms total)
T0FE0 000:638 JLINK_GetNumWPUnits()  returns 0x02 (0000ms, 0559ms total)
T0FE0 000:643 JLINK_GetSpeed()  returns 0xFA0 (0000ms, 0559ms total)
T0FE0 000:648 JLINK_ReadMemU32(0xE000E004, 0x0001 Items, ...) -- CPU_ReadMem(4 bytes @ 0xE000E004) - Data: 00 00 00 00  returns 0x01 (0000ms, 0559ms total)
T0FE0 000:648 JLINK_Halt()  returns 0x00 (0000ms, 0559ms total)
T0FE0 000:648 JLINK_IsHalted()  returns TRUE (0000ms, 0559ms total)
T0FE0 000:681 JLINK_WriteMem(0x10000000, 0x0170 Bytes, ...) - Data: 00 BE 0A E0 0D 78 2D 06 68 40 08 24 40 00 00 D3 ... -- CPU_WriteMem(368 bytes @ 0x10000000)  returns 0x170 (0002ms, 0561ms total)
T0FE0 000:683 JLINK_WriteReg(R0, 0x00000000)  returns 0x00 (0000ms, 0561ms total)
T0FE0 000:683 JLINK_WriteReg(R1, 0x00B71B00)  returns 0x00 (0000ms, 0561ms total)
T0FE0 000:683 JLINK_WriteReg(R2, 0x00000001)  returns 0x00 (0000ms, 0561ms total)
T0FE0 000:683 JLINK_WriteReg(R3, 0x00000000)  returns 0x00 (0000ms, 0561ms total)
T0FE0 000:683 JLINK_WriteReg(R4, 0x00000000)  returns 0x00 (0000ms, 0561ms total)
T0FE0 000:683 JLINK_WriteReg(R5, 0x00000000)  returns 0x00 (0000ms, 0561ms total)
T0FE0 000:683 JLINK_WriteReg(R6, 0x00000000)  returns 0x00 (0000ms, 0561ms total)
T0FE0 000:683 JLINK_WriteReg(R7, 0x00000000)  returns 0x00 (0000ms, 0561ms total)
T0FE0 000:683 JLINK_WriteReg(R8, 0x00000000)  returns 0x00 (0000ms, 0561ms total)
T0FE0 000:683 JLINK_WriteReg(R9, 0x10000168)  returns 0x00 (0000ms, 0561ms total)
T0FE0 000:683 JLINK_WriteReg(R10, 0x00000000)  returns 0x00 (0000ms, 0561ms total)
T0FE0 000:683 JLINK_WriteReg(R11, 0x00000000)  returns 0x00 (0000ms, 0561ms total)
T0FE0 000:683 JLINK_WriteReg(R12, 0x00000000)  returns 0x00 (0000ms, 0561ms total)
T0FE0 000:683 JLINK_WriteReg(R13 (SP), 0x10000FE0)  returns 0x00 (0000ms, 0561ms total)
T0FE0 000:683 JLINK_WriteReg(R14, 0x10000001)  returns 0x00 (0000ms, 0561ms total)
T0FE0 000:683 JLINK_WriteReg(R15 (PC), 0x1000003C)  returns 0x00 (0000ms, 0561ms total)
T0FE0 000:683 JLINK_WriteReg(XPSR, 0x01000000)  returns 0x00 (0000ms, 0561ms total)
T0FE0 000:683 JLINK_WriteReg(MSP, 0x10000FE0)  returns 0x00 (0000ms, 0561ms total)
T0FE0 000:683 JLINK_WriteReg(PSP, 0x10000FE0)  returns 0x00 (0000ms, 0561ms total)
T0FE0 000:683 JLINK_WriteReg(CFBP, 0x00000000)  returns 0x00 (0000ms, 0561ms total)
T0FE0 000:683 JLINK_SetBPEx(Addr = 0x10000000, Type = 0xFFFFFFF2)  returns 0x00000001 (0000ms, 0561ms total)
T0FE0 000:683 JLINK_Go() -- CPU_WriteMem(4 bytes @ 0xE0002000) -- CPU_ReadMem(4 bytes @ 0xE0001000) -- CPU_WriteMem(4 bytes @ 0xE0001000) -- CPU_WriteMem(4 bytes @ 0xE0002008) -- CPU_WriteMem(4 bytes @ 0xE000200C) -- CPU_WriteMem(4 bytes @ 0xE0002010) -- CPU_WriteMem(4 bytes @ 0xE0002014) -- CPU_WriteMem(4 bytes @ 0xE0001004) (0004ms, 0565ms total)
T0FE0 000:687 JLINK_IsHalted()  returns TRUE (0002ms, 0567ms total)
T0FE0 000:689 JLINK_ReadReg(R15 (PC))  returns 0x10000000 (0000ms, 0565ms total)
T0FE0 000:689 JLINK_ClrBPEx(BPHandle = 0x00000001)  returns 0x00 (0000ms, 0565ms total)
T0FE0 000:689 JLINK_ReadReg(R0)  returns 0x00000000 (0000ms, 0565ms total)
T0FE0 000:690 JLINK_WriteReg(R0, 0x00000000)  returns 0x00 (0000ms, 0565ms total)
T0FE0 000:690 JLINK_WriteReg(R1, 0x00B71B00)  returns 0x00 (0000ms, 0565ms total)
T0FE0 000:690 JLINK_WriteReg(R2, 0x00000001)  returns 0x00 (0000ms, 0565ms total)
T0FE0 000:690 JLINK_WriteReg(R3, 0x00000000)  returns 0x00 (0000ms, 0565ms total)
T0FE0 000:690 JLINK_WriteReg(R4, 0x00000000)  returns 0x00 (0000ms, 0565ms total)
T0FE0 000:690 JLINK_WriteReg(R5, 0x00000000)  returns 0x00 (0000ms, 0565ms total)
T0FE0 000:690 JLINK_WriteReg(R6, 0x00000000)  returns 0x00 (0000ms, 0565ms total)
T0FE0 000:690 JLINK_WriteReg(R7, 0x00000000)  returns 0x00 (0000ms, 0565ms total)
T0FE0 000:690 JLINK_WriteReg(R8, 0x00000000)  returns 0x00 (0000ms, 0565ms total)
T0FE0 000:690 JLINK_WriteReg(R9, 0x10000168)  returns 0x00 (0000ms, 0565ms total)
T0FE0 000:690 JLINK_WriteReg(R10, 0x00000000)  returns 0x00 (0000ms, 0565ms total)
T0FE0 000:690 JLINK_WriteReg(R11, 0x00000000)  returns 0x00 (0000ms, 0565ms total)
T0FE0 000:690 JLINK_WriteReg(R12, 0x00000000)  returns 0x00 (0000ms, 0565ms total)
T0FE0 000:690 JLINK_WriteReg(R13 (SP), 0x10000FE0)  returns 0x00 (0000ms, 0565ms total)
T0FE0 000:690 JLINK_WriteReg(R14, 0x10000001)  returns 0x00 (0000ms, 0565ms total)
T0FE0 000:690 JLINK_WriteReg(R15 (PC), 0x10000064)  returns 0x00 (0000ms, 0565ms total)
T0FE0 000:690 JLINK_WriteReg(XPSR, 0x01000000)  returns 0x00 (0000ms, 0565ms total)
T0FE0 000:690 JLINK_WriteReg(MSP, 0x10000FE0)  returns 0x00 (0000ms, 0565ms total)
T0FE0 000:690 JLINK_WriteReg(PSP, 0x10000FE0)  returns 0x00 (0000ms, 0565ms total)
T0FE0 000:690 JLINK_WriteReg(CFBP, 0x00000000)  returns 0x00 (0000ms, 0565ms total)
T0FE0 000:690 JLINK_SetBPEx(Addr = 0x10000000, Type = 0xFFFFFFF2)  returns 0x00000002 (0000ms, 0565ms total)
T0FE0 000:690 JLINK_Go() -- CPU_WriteMem(4 bytes @ 0xE0002000) -- CPU_ReadMem(4 bytes @ 0xE0001000) -- CPU_WriteMem(4 bytes @ 0xE0001000) (0003ms, 0568ms total)
T0FE0 000:693 JLINK_IsHalted()  returns FALSE (0000ms, 0568ms total)
T0FE0 000:809 JLINK_IsHalted()  returns TRUE (0002ms, 0570ms total)
T0FE0 000:811 JLINK_ReadReg(R15 (PC))  returns 0x10000000 (0000ms, 0568ms total)
T0FE0 000:811 JLINK_ClrBPEx(BPHandle = 0x00000002)  returns 0x00 (0000ms, 0568ms total)
T0FE0 000:811 JLINK_ReadReg(R0)  returns 0x00000000 (0000ms, 0568ms total)
T0FE0 000:863 JLINK_WriteReg(R0, 0x00000001)  returns 0x00 (0000ms, 0568ms total)
T0FE0 000:863 JLINK_WriteReg(R1, 0x00B71B00)  returns 0x00 (0000ms, 0568ms total)
T0FE0 000:863 JLINK_WriteReg(R2, 0x00000001)  returns 0x00 (0000ms, 0568ms total)
T0FE0 000:863 JLINK_WriteReg(R3, 0x00000000)  returns 0x00 (0000ms, 0568ms total)
T0FE0 000:863 JLINK_WriteReg(R4, 0x00000000)  returns 0x00 (0000ms, 0568ms total)
T0FE0 000:863 JLINK_WriteReg(R5, 0x00000000)  returns 0x00 (0000ms, 0568ms total)
T0FE0 000:863 JLINK_WriteReg(R6, 0x00000000)  returns 0x00 (0000ms, 0568ms total)
T0FE0 000:863 JLINK_WriteReg(R7, 0x00000000)  returns 0x00 (0000ms, 0568ms total)
T0FE0 000:863 JLINK_WriteReg(R8, 0x00000000)  returns 0x00 (0000ms, 0568ms total)
T0FE0 000:863 JLINK_WriteReg(R9, 0x10000168)  returns 0x00 (0000ms, 0568ms total)
T0FE0 000:863 JLINK_WriteReg(R10, 0x00000000)  returns 0x00 (0000ms, 0568ms total)
T0FE0 000:863 JLINK_WriteReg(R11, 0x00000000)  returns 0x00 (0000ms, 0568ms total)
T0FE0 000:863 JLINK_WriteReg(R12, 0x00000000)  returns 0x00 (0000ms, 0568ms total)
T0FE0 000:863 JLINK_WriteReg(R13 (SP), 0x10000FE0)  returns 0x00 (0000ms, 0568ms total)
T0FE0 000:863 JLINK_WriteReg(R14, 0x10000001)  returns 0x00 (0000ms, 0568ms total)
T0FE0 000:863 JLINK_WriteReg(R15 (PC), 0x10000060)  returns 0x00 (0000ms, 0568ms total)
T0FE0 000:863 JLINK_WriteReg(XPSR, 0x01000000)  returns 0x00 (0000ms, 0568ms total)
T0FE0 000:863 JLINK_WriteReg(MSP, 0x10000FE0)  returns 0x00 (0000ms, 0568ms total)
T0FE0 000:863 JLINK_WriteReg(PSP, 0x10000FE0)  returns 0x00 (0000ms, 0568ms total)
T0FE0 000:863 JLINK_WriteReg(CFBP, 0x00000000)  returns 0x00 (0000ms, 0568ms total)
T0FE0 000:863 JLINK_SetBPEx(Addr = 0x10000000, Type = 0xFFFFFFF2)  returns 0x00000003 (0000ms, 0568ms total)
T0FE0 000:863 JLINK_Go() -- CPU_WriteMem(4 bytes @ 0xE0002000) -- CPU_ReadMem(4 bytes @ 0xE0001000) -- CPU_WriteMem(4 bytes @ 0xE0001000) (0003ms, 0571ms total)
T0FE0 000:866 JLINK_IsHalted()  returns TRUE (0001ms, 0572ms total)
T0FE0 000:867 JLINK_ReadReg(R15 (PC))  returns 0x10000000 (0000ms, 0571ms total)
T0FE0 000:868 JLINK_ClrBPEx(BPHandle = 0x00000003)  returns 0x00 (0000ms, 0571ms total)
T0FE0 000:868 JLINK_ReadReg(R0)  returns 0x00000000 (0000ms, 0571ms total)
T0FE0 000:872 JLINK_WriteMem(0x10000000, 0x0170 Bytes, ...) - Data: 00 BE 0A E0 0D 78 2D 06 68 40 08 24 40 00 00 D3 ... -- CPU_WriteMem(368 bytes @ 0x10000000)  returns 0x170 (0001ms, 0572ms total)
T0FE0 000:873 JLINK_WriteReg(R0, 0x00000000)  returns 0x00 (0001ms, 0573ms total)
T0FE0 000:874 JLINK_WriteReg(R1, 0x00B71B00)  returns 0x00 (0000ms, 0573ms total)
T0FE0 000:874 JLINK_WriteReg(R2, 0x00000002)  returns 0x00 (0000ms, 0573ms total)
T0FE0 000:874 JLINK_WriteReg(R3, 0x00000000)  returns 0x00 (0000ms, 0573ms total)
T0FE0 000:874 JLINK_WriteReg(R4, 0x00000000)  returns 0x00 (0000ms, 0573ms total)
T0FE0 000:874 JLINK_WriteReg(R5, 0x00000000)  returns 0x00 (0000ms, 0573ms total)
T0FE0 000:874 JLINK_WriteReg(R6, 0x00000000)  returns 0x00 (0000ms, 0573ms total)
T0FE0 000:874 JLINK_WriteReg(R7, 0x00000000)  returns 0x00 (0000ms, 0573ms total)
T0FE0 000:874 JLINK_WriteReg(R8, 0x00000000)  returns 0x00 (0000ms, 0573ms total)
T0FE0 000:874 JLINK_WriteReg(R9, 0x10000168)  returns 0x00 (0000ms, 0573ms total)
T0FE0 000:874 JLINK_WriteReg(R10, 0x00000000)  returns 0x00 (0000ms, 0573ms total)
T0FE0 000:874 JLINK_WriteReg(R11, 0x00000000)  returns 0x00 (0000ms, 0573ms total)
T0FE0 000:874 JLINK_WriteReg(R12, 0x00000000)  returns 0x00 (0000ms, 0573ms total)
T0FE0 000:874 JLINK_WriteReg(R13 (SP), 0x10000FE0)  returns 0x00 (0000ms, 0573ms total)
T0FE0 000:874 JLINK_WriteReg(R14, 0x10000001)  returns 0x00 (0000ms, 0573ms total)
T0FE0 000:874 JLINK_WriteReg(R15 (PC), 0x1000003C)  returns 0x00 (0000ms, 0573ms total)
T0FE0 000:874 JLINK_WriteReg(XPSR, 0x01000000)  returns 0x00 (0000ms, 0573ms total)
T0FE0 000:874 JLINK_WriteReg(MSP, 0x10000FE0)  returns 0x00 (0000ms, 0573ms total)
T0FE0 000:874 JLINK_WriteReg(PSP, 0x10000FE0)  returns 0x00 (0000ms, 0573ms total)
T0FE0 000:874 JLINK_WriteReg(CFBP, 0x00000000)  returns 0x00 (0000ms, 0573ms total)
T0FE0 000:874 JLINK_SetBPEx(Addr = 0x10000000, Type = 0xFFFFFFF2)  returns 0x00000004 (0000ms, 0573ms total)
T0FE0 000:874 JLINK_Go() -- CPU_WriteMem(4 bytes @ 0xE0002000) -- CPU_ReadMem(4 bytes @ 0xE0001000) -- CPU_WriteMem(4 bytes @ 0xE0001000) (0002ms, 0575ms total)
T0FE0 000:876 JLINK_IsHalted()  returns TRUE (0002ms, 0577ms total)
T0FE0 000:878 JLINK_ReadReg(R15 (PC))  returns 0x10000000 (0000ms, 0575ms total)
T0FE0 000:878 JLINK_ClrBPEx(BPHandle = 0x00000004)  returns 0x00 (0000ms, 0575ms total)
T0FE0 000:878 JLINK_ReadReg(R0)  returns 0x00000000 (0000ms, 0575ms total)
T0FE0 000:878 JLINK_WriteMem(0x10000190, 0x0270 Bytes, ...) - Data: 78 02 00 10 75 01 00 00 7D 01 00 00 7F 01 00 00 ... -- CPU_WriteMem(624 bytes @ 0x10000190)  returns 0x270 (0002ms, 0577ms total)
T0FE0 000:880 JLINK_WriteMem(0x10000400, 0x0190 Bytes, ...) - Data: 21 46 00 98 00 F0 78 F9 FE BD 00 00 00 00 00 00 ... -- CPU_WriteMem(400 bytes @ 0x10000400)  returns 0x190 (0002ms, 0579ms total)
T0FE0 000:882 JLINK_WriteReg(R0, 0x00000000)  returns 0x00 (0000ms, 0579ms total)
T0FE0 000:882 JLINK_WriteReg(R1, 0x00000400)  returns 0x00 (0001ms, 0580ms total)
T0FE0 000:883 JLINK_WriteReg(R2, 0x10000190)  returns 0x00 (0000ms, 0580ms total)
T0FE0 000:883 JLINK_WriteReg(R3, 0x00000000)  returns 0x00 (0000ms, 0580ms total)
T0FE0 000:883 JLINK_WriteReg(R4, 0x00000000)  returns 0x00 (0000ms, 0580ms total)
T0FE0 000:883 JLINK_WriteReg(R5, 0x00000000)  returns 0x00 (0000ms, 0580ms total)
T0FE0 000:883 JLINK_WriteReg(R6, 0x00000000)  returns 0x00 (0000ms, 0580ms total)
T0FE0 000:883 JLINK_WriteReg(R7, 0x00000000)  returns 0x00 (0000ms, 0580ms total)
T0FE0 000:883 JLINK_WriteReg(R8, 0x00000000)  returns 0x00 (0000ms, 0580ms total)
T0FE0 000:883 JLINK_WriteReg(R9, 0x10000168)  returns 0x00 (0000ms, 0580ms total)
T0FE0 000:883 JLINK_WriteReg(R10, 0x00000000)  returns 0x00 (0000ms, 0580ms total)
T0FE0 000:883 JLINK_WriteReg(R11, 0x00000000)  returns 0x00 (0000ms, 0580ms total)
T0FE0 000:883 JLINK_WriteReg(R12, 0x00000000)  returns 0x00 (0000ms, 0580ms total)
T0FE0 000:883 JLINK_WriteReg(R13 (SP), 0x10000FE0)  returns 0x00 (0000ms, 0580ms total)
T0FE0 000:883 JLINK_WriteReg(R14, 0x10000001)  returns 0x00 (0000ms, 0580ms total)
T0FE0 000:883 JLINK_WriteReg(R15 (PC), 0x100000E6)  returns 0x00 (0000ms, 0580ms total)
T0FE0 000:883 JLINK_WriteReg(XPSR, 0x01000000)  returns 0x00 (0000ms, 0580ms total)
T0FE0 000:883 JLINK_WriteReg(MSP, 0x10000FE0)  returns 0x00 (0000ms, 0580ms total)
T0FE0 000:883 JLINK_WriteReg(PSP, 0x10000FE0)  returns 0x00 (0000ms, 0580ms total)
T0FE0 000:883 JLINK_WriteReg(CFBP, 0x00000000)  returns 0x00 (0000ms, 0580ms total)
T0FE0 000:883 JLINK_SetBPEx(Addr = 0x10000000, Type = 0xFFFFFFF2)  returns 0x00000005 (0000ms, 0580ms total)
T0FE0 000:883 JLINK_Go() -- CPU_WriteMem(4 bytes @ 0xE0002000) -- CPU_ReadMem(4 bytes @ 0xE0001000) -- CPU_WriteMem(4 bytes @ 0xE0001000) (0002ms, 0582ms total)
T0FE0 000:885 JLINK_IsHalted()  returns FALSE (0000ms, 0582ms total)
T0FE0 000:897 JLINK_IsHalted()  returns TRUE (0002ms, 0584ms total)
T0FE0 000:899 JLINK_ReadReg(R15 (PC))  returns 0x10000000 (0000ms, 0582ms total)
T0FE0 000:899 JLINK_ClrBPEx(BPHandle = 0x00000005)  returns 0x00 (0000ms, 0582ms total)
T0FE0 000:899 JLINK_ReadReg(R0)  returns 0x00000000 (0000ms, 0582ms total)
T0FE0 000:900 JLINK_WriteMem(0x10000190, 0x0270 Bytes, ...) - Data: A1 68 90 47 20 6A 40 1C 7E E7 20 6A FE BD 00 22 ... -- CPU_WriteMem(624 bytes @ 0x10000190)  returns 0x270 (0003ms, 0585ms total)
T0FE0 000:903 JLINK_WriteMem(0x10000400, 0x0190 Bytes, ...) - Data: 01 49 18 20 AB BE FE E7 26 00 02 00 10 B5 16 48 ... -- CPU_WriteMem(400 bytes @ 0x10000400)  returns 0x190 (0002ms, 0587ms total)
T0FE0 000:905 JLINK_WriteReg(R0, 0x00000400)  returns 0x00 (0000ms, 0587ms total)
T0FE0 000:905 JLINK_WriteReg(R1, 0x00000400)  returns 0x00 (0000ms, 0587ms total)
T0FE0 000:905 JLINK_WriteReg(R2, 0x10000190)  returns 0x00 (0000ms, 0587ms total)
T0FE0 000:905 JLINK_WriteReg(R3, 0x00000000)  returns 0x00 (0000ms, 0587ms total)
T0FE0 000:905 JLINK_WriteReg(R4, 0x00000000)  returns 0x00 (0000ms, 0587ms total)
T0FE0 000:905 JLINK_WriteReg(R5, 0x00000000)  returns 0x00 (0000ms, 0587ms total)
T0FE0 000:905 JLINK_WriteReg(R6, 0x00000000)  returns 0x00 (0000ms, 0587ms total)
T0FE0 000:905 JLINK_WriteReg(R7, 0x00000000)  returns 0x00 (0000ms, 0587ms total)
T0FE0 000:905 JLINK_WriteReg(R8, 0x00000000)  returns 0x00 (0000ms, 0587ms total)
T0FE0 000:905 JLINK_WriteReg(R9, 0x10000168)  returns 0x00 (0000ms, 0587ms total)
T0FE0 000:905 JLINK_WriteReg(R10, 0x00000000)  returns 0x00 (0000ms, 0587ms total)
T0FE0 000:905 JLINK_WriteReg(R11, 0x00000000)  returns 0x00 (0000ms, 0587ms total)
T0FE0 000:905 JLINK_WriteReg(R12, 0x00000000)  returns 0x00 (0000ms, 0587ms total)
T0FE0 000:905 JLINK_WriteReg(R13 (SP), 0x10000FE0)  returns 0x00 (0000ms, 0587ms total)
T0FE0 000:905 JLINK_WriteReg(R14, 0x10000001)  returns 0x00 (0000ms, 0587ms total)
T0FE0 000:905 JLINK_WriteReg(R15 (PC), 0x100000E6)  returns 0x00 (0000ms, 0587ms total)
T0FE0 000:905 JLINK_WriteReg(XPSR, 0x01000000)  returns 0x00 (0000ms, 0587ms total)
T0FE0 000:905 JLINK_WriteReg(MSP, 0x10000FE0)  returns 0x00 (0000ms, 0587ms total)
T0FE0 000:905 JLINK_WriteReg(PSP, 0x10000FE0)  returns 0x00 (0000ms, 0587ms total)
T0FE0 000:905 JLINK_WriteReg(CFBP, 0x00000000)  returns 0x00 (0000ms, 0587ms total)
T0FE0 000:905 JLINK_SetBPEx(Addr = 0x10000000, Type = 0xFFFFFFF2)  returns 0x00000006 (0000ms, 0587ms total)
T0FE0 000:905 JLINK_Go() -- CPU_WriteMem(4 bytes @ 0xE0002000) -- CPU_ReadMem(4 bytes @ 0xE0001000) -- CPU_WriteMem(4 bytes @ 0xE0001000) (0003ms, 0590ms total)
T0FE0 000:908 JLINK_IsHalted()  returns FALSE (0000ms, 0590ms total)
T0FE0 000:911 JLINK_IsHalted()  returns FALSE (0000ms, 0590ms total)
T0FE0 000:913 JLINK_IsHalted()  returns TRUE (0002ms, 0592ms total)
T0FE0 000:915 JLINK_ReadReg(R15 (PC))  returns 0x10000000 (0000ms, 0590ms total)
T0FE0 000:915 JLINK_ClrBPEx(BPHandle = 0x00000006)  returns 0x00 (0000ms, 0590ms total)
T0FE0 000:915 JLINK_ReadReg(R0)  returns 0x00000000 (0000ms, 0590ms total)
T0FE0 000:916 JLINK_WriteMem(0x10000190, 0x0270 Bytes, ...) - Data: 08 43 18 49 88 62 16 48 00 68 01 21 09 03 08 43 ... -- CPU_WriteMem(624 bytes @ 0x10000190)  returns 0x270 (0003ms, 0593ms total)
T0FE0 000:919 JLINK_WriteMem(0x10000400, 0x0190 Bytes, ...) - Data: 84 0A 00 00 04 00 00 10 74 02 00 00 20 01 00 00 ... -- CPU_WriteMem(400 bytes @ 0x10000400)  returns 0x190 (0002ms, 0595ms total)
T0FE0 000:921 JLINK_WriteReg(R0, 0x00000800)  returns 0x00 (0000ms, 0595ms total)
T0FE0 000:921 JLINK_WriteReg(R1, 0x00000284)  returns 0x00 (0000ms, 0595ms total)
T0FE0 000:921 JLINK_WriteReg(R2, 0x10000190)  returns 0x00 (0000ms, 0595ms total)
T0FE0 000:921 JLINK_WriteReg(R3, 0x00000000)  returns 0x00 (0000ms, 0595ms total)
T0FE0 000:921 JLINK_WriteReg(R4, 0x00000000)  returns 0x00 (0000ms, 0595ms total)
T0FE0 000:921 JLINK_WriteReg(R5, 0x00000000)  returns 0x00 (0000ms, 0595ms total)
T0FE0 000:921 JLINK_WriteReg(R6, 0x00000000)  returns 0x00 (0000ms, 0595ms total)
T0FE0 000:921 JLINK_WriteReg(R7, 0x00000000)  returns 0x00 (0000ms, 0595ms total)
T0FE0 000:921 JLINK_WriteReg(R8, 0x00000000)  returns 0x00 (0000ms, 0595ms total)
T0FE0 000:921 JLINK_WriteReg(R9, 0x10000168)  returns 0x00 (0000ms, 0595ms total)
T0FE0 000:921 JLINK_WriteReg(R10, 0x00000000)  returns 0x00 (0000ms, 0595ms total)
T0FE0 000:921 JLINK_WriteReg(R11, 0x00000000)  returns 0x00 (0000ms, 0595ms total)
T0FE0 000:921 JLINK_WriteReg(R12, 0x00000000)  returns 0x00 (0000ms, 0595ms total)
T0FE0 000:921 JLINK_WriteReg(R13 (SP), 0x10000FE0)  returns 0x00 (0000ms, 0595ms total)
T0FE0 000:921 JLINK_WriteReg(R14, 0x10000001)  returns 0x00 (0000ms, 0595ms total)
T0FE0 000:921 JLINK_WriteReg(R15 (PC), 0x100000E6)  returns 0x00 (0000ms, 0595ms total)
T0FE0 000:921 JLINK_WriteReg(XPSR, 0x01000000)  returns 0x00 (0000ms, 0595ms total)
T0FE0 000:921 JLINK_WriteReg(MSP, 0x10000FE0)  returns 0x00 (0000ms, 0595ms total)
T0FE0 000:921 JLINK_WriteReg(PSP, 0x10000FE0)  returns 0x00 (0000ms, 0595ms total)
T0FE0 000:921 JLINK_WriteReg(CFBP, 0x00000000)  returns 0x00 (0000ms, 0595ms total)
T0FE0 000:921 JLINK_SetBPEx(Addr = 0x10000000, Type = 0xFFFFFFF2)  returns 0x00000007 (0000ms, 0595ms total)
T0FE0 000:921 JLINK_Go() -- CPU_WriteMem(4 bytes @ 0xE0002000) -- CPU_ReadMem(4 bytes @ 0xE0001000) -- CPU_WriteMem(4 bytes @ 0xE0001000) (0002ms, 0597ms total)
T0FE0 000:923 JLINK_IsHalted()  returns FALSE (0001ms, 0598ms total)
T0FE0 000:926 JLINK_IsHalted()  returns FALSE (0000ms, 0597ms total)
T0FE0 000:928 JLINK_IsHalted()  returns FALSE (0000ms, 0597ms total)
T0FE0 000:930 JLINK_IsHalted()  returns TRUE (0002ms, 0599ms total)
T0FE0 000:932 JLINK_ReadReg(R15 (PC))  returns 0x10000000 (0000ms, 0597ms total)
T0FE0 000:932 JLINK_ClrBPEx(BPHandle = 0x00000007)  returns 0x00 (0000ms, 0597ms total)
T0FE0 000:932 JLINK_ReadReg(R0)  returns 0x00000000 (0000ms, 0597ms total)
T0FE0 000:932 JLINK_WriteReg(R0, 0x00000002)  returns 0x00 (0000ms, 0597ms total)
T0FE0 000:932 JLINK_WriteReg(R1, 0x00000284)  returns 0x00 (0000ms, 0597ms total)
T0FE0 000:932 JLINK_WriteReg(R2, 0x10000190)  returns 0x00 (0000ms, 0597ms total)
T0FE0 000:932 JLINK_WriteReg(R3, 0x00000000)  returns 0x00 (0000ms, 0597ms total)
T0FE0 000:932 JLINK_WriteReg(R4, 0x00000000)  returns 0x00 (0000ms, 0597ms total)
T0FE0 000:932 JLINK_WriteReg(R5, 0x00000000)  returns 0x00 (0000ms, 0597ms total)
T0FE0 000:932 JLINK_WriteReg(R6, 0x00000000)  returns 0x00 (0000ms, 0597ms total)
T0FE0 000:932 JLINK_WriteReg(R7, 0x00000000)  returns 0x00 (0000ms, 0597ms total)
T0FE0 000:932 JLINK_WriteReg(R8, 0x00000000)  returns 0x00 (0000ms, 0597ms total)
T0FE0 000:932 JLINK_WriteReg(R9, 0x10000168)  returns 0x00 (0000ms, 0597ms total)
T0FE0 000:932 JLINK_WriteReg(R10, 0x00000000)  returns 0x00 (0000ms, 0597ms total)
T0FE0 000:932 JLINK_WriteReg(R11, 0x00000000)  returns 0x00 (0000ms, 0597ms total)
T0FE0 000:932 JLINK_WriteReg(R12, 0x00000000)  returns 0x00 (0000ms, 0597ms total)
T0FE0 000:932 JLINK_WriteReg(R13 (SP), 0x10000FE0)  returns 0x00 (0000ms, 0597ms total)
T0FE0 000:932 JLINK_WriteReg(R14, 0x10000001)  returns 0x00 (0000ms, 0597ms total)
T0FE0 000:932 JLINK_WriteReg(R15 (PC), 0x10000060)  returns 0x00 (0000ms, 0597ms total)
T0FE0 000:932 JLINK_WriteReg(XPSR, 0x01000000)  returns 0x00 (0000ms, 0597ms total)
T0FE0 000:932 JLINK_WriteReg(MSP, 0x10000FE0)  returns 0x00 (0000ms, 0597ms total)
T0FE0 000:932 JLINK_WriteReg(PSP, 0x10000FE0)  returns 0x00 (0000ms, 0597ms total)
T0FE0 000:932 JLINK_WriteReg(CFBP, 0x00000000)  returns 0x00 (0000ms, 0597ms total)
T0FE0 000:932 JLINK_SetBPEx(Addr = 0x10000000, Type = 0xFFFFFFF2)  returns 0x00000008 (0000ms, 0597ms total)
T0FE0 000:932 JLINK_Go() -- CPU_WriteMem(4 bytes @ 0xE0002000) -- CPU_ReadMem(4 bytes @ 0xE0001000) -- CPU_WriteMem(4 bytes @ 0xE0001000) (0002ms, 0599ms total)
T0FE0 000:934 JLINK_IsHalted()  returns TRUE (0002ms, 0601ms total)
T0FE0 000:936 JLINK_ReadReg(R15 (PC))  returns 0x10000000 (0000ms, 0599ms total)
T0FE0 000:936 JLINK_ClrBPEx(BPHandle = 0x00000008)  returns 0x00 (0000ms, 0599ms total)
T0FE0 000:936 JLINK_ReadReg(R0)  returns 0x00000000 (0000ms, 0599ms total)
T0FE0 000:992 JLINK_WriteMem(0x10000000, 0x0170 Bytes, ...) - Data: 00 BE 0A E0 0D 78 2D 06 68 40 08 24 40 00 00 D3 ... -- CPU_WriteMem(368 bytes @ 0x10000000)  returns 0x170 (0003ms, 0602ms total)
T0FE0 000:995 JLINK_WriteReg(R0, 0x00000000)  returns 0x00 (0000ms, 0602ms total)
T0FE0 000:995 JLINK_WriteReg(R1, 0x00B71B00)  returns 0x00 (0000ms, 0602ms total)
T0FE0 000:995 JLINK_WriteReg(R2, 0x00000003)  returns 0x00 (0000ms, 0602ms total)
T0FE0 000:995 JLINK_WriteReg(R3, 0x00000000)  returns 0x00 (0000ms, 0602ms total)
T0FE0 000:995 JLINK_WriteReg(R4, 0x00000000)  returns 0x00 (0000ms, 0602ms total)
T0FE0 000:995 JLINK_WriteReg(R5, 0x00000000)  returns 0x00 (0000ms, 0602ms total)
T0FE0 000:995 JLINK_WriteReg(R6, 0x00000000)  returns 0x00 (0000ms, 0602ms total)
T0FE0 000:995 JLINK_WriteReg(R7, 0x00000000)  returns 0x00 (0000ms, 0602ms total)
T0FE0 000:995 JLINK_WriteReg(R8, 0x00000000)  returns 0x00 (0000ms, 0602ms total)
T0FE0 000:995 JLINK_WriteReg(R9, 0x10000168)  returns 0x00 (0000ms, 0602ms total)
T0FE0 000:995 JLINK_WriteReg(R10, 0x00000000)  returns 0x00 (0000ms, 0602ms total)
T0FE0 000:995 JLINK_WriteReg(R11, 0x00000000)  returns 0x00 (0000ms, 0602ms total)
T0FE0 000:995 JLINK_WriteReg(R12, 0x00000000)  returns 0x00 (0000ms, 0602ms total)
T0FE0 000:995 JLINK_WriteReg(R13 (SP), 0x10000FE0)  returns 0x00 (0000ms, 0602ms total)
T0FE0 000:995 JLINK_WriteReg(R14, 0x10000001)  returns 0x00 (0000ms, 0602ms total)
T0FE0 000:995 JLINK_WriteReg(R15 (PC), 0x1000003C)  returns 0x00 (0000ms, 0602ms total)
T0FE0 000:995 JLINK_WriteReg(XPSR, 0x01000000)  returns 0x00 (0000ms, 0602ms total)
T0FE0 000:995 JLINK_WriteReg(MSP, 0x10000FE0)  returns 0x00 (0000ms, 0602ms total)
T0FE0 000:995 JLINK_WriteReg(PSP, 0x10000FE0)  returns 0x00 (0000ms, 0602ms total)
T0FE0 000:995 JLINK_WriteReg(CFBP, 0x00000000)  returns 0x00 (0000ms, 0602ms total)
T0FE0 000:995 JLINK_SetBPEx(Addr = 0x10000000, Type = 0xFFFFFFF2)  returns 0x00000009 (0000ms, 0602ms total)
T0FE0 000:995 JLINK_Go() -- CPU_WriteMem(4 bytes @ 0xE0002000) -- CPU_ReadMem(4 bytes @ 0xE0001000) -- CPU_WriteMem(4 bytes @ 0xE0001000) (0002ms, 0604ms total)
T0FE0 000:997 JLINK_IsHalted()  returns TRUE (0002ms, 0606ms total)
T0FE0 000:999 JLINK_ReadReg(R15 (PC))  returns 0x10000000 (0000ms, 0604ms total)
T0FE0 000:999 JLINK_ClrBPEx(BPHandle = 0x00000009)  returns 0x00 (0000ms, 0604ms total)
T0FE0 000:999 JLINK_ReadReg(R0)  returns 0x00000000 (0000ms, 0604ms total)
T0FE0 000:999 JLINK_WriteReg(R0, 0xFFFFFFFF)  returns 0x00 (0000ms, 0604ms total)
T0FE0 000:999 JLINK_WriteReg(R1, 0x00000000)  returns 0x00 (0000ms, 0604ms total)
T0FE0 000:999 JLINK_WriteReg(R2, 0x00000A84)  returns 0x00 (0000ms, 0604ms total)
T0FE0 000:999 JLINK_WriteReg(R3, 0x04C11DB7)  returns 0x00 (0000ms, 0604ms total)
T0FE0 000:999 JLINK_WriteReg(R4, 0x00000000)  returns 0x00 (0000ms, 0604ms total)
T0FE0 000:999 JLINK_WriteReg(R5, 0x00000000)  returns 0x00 (0000ms, 0604ms total)
T0FE0 000:999 JLINK_WriteReg(R6, 0x00000000)  returns 0x00 (0000ms, 0604ms total)
T0FE0 000:999 JLINK_WriteReg(R7, 0x00000000)  returns 0x00 (0000ms, 0604ms total)
T0FE0 000:999 JLINK_WriteReg(R8, 0x00000000)  returns 0x00 (0000ms, 0604ms total)
T0FE0 000:999 JLINK_WriteReg(R9, 0x10000168)  returns 0x00 (0000ms, 0604ms total)
T0FE0 000:999 JLINK_WriteReg(R10, 0x00000000)  returns 0x00 (0000ms, 0604ms total)
T0FE0 000:999 JLINK_WriteReg(R11, 0x00000000)  returns 0x00 (0000ms, 0604ms total)
T0FE0 000:999 JLINK_WriteReg(R12, 0x00000000)  returns 0x00 (0000ms, 0604ms total)
T0FE0 000:999 JLINK_WriteReg(R13 (SP), 0x10000FE0)  returns 0x00 (0000ms, 0604ms total)
T0FE0 000:999 JLINK_WriteReg(R14, 0x10000001)  returns 0x00 (0000ms, 0604ms total)
T0FE0 000:999 JLINK_WriteReg(R15 (PC), 0x10000002)  returns 0x00 (0000ms, 0604ms total)
T0FE0 000:999 JLINK_WriteReg(XPSR, 0x01000000)  returns 0x00 (0000ms, 0604ms total)
T0FE0 000:999 JLINK_WriteReg(MSP, 0x10000FE0)  returns 0x00 (0000ms, 0604ms total)
T0FE0 000:999 JLINK_WriteReg(PSP, 0x10000FE0)  returns 0x00 (0000ms, 0604ms total)
T0FE0 000:999 JLINK_WriteReg(CFBP, 0x00000000)  returns 0x00 (0000ms, 0604ms total)
T0FE0 000:999 JLINK_SetBPEx(Addr = 0x10000000, Type = 0xFFFFFFF2)  returns 0x0000000A (0000ms, 0604ms total)
T0FE0 000:999 JLINK_Go() -- CPU_WriteMem(4 bytes @ 0xE0002000) -- CPU_ReadMem(4 bytes @ 0xE0001000) -- CPU_WriteMem(4 bytes @ 0xE0001000) (0003ms, 0607ms total)
T0FE0 001:002 JLINK_IsHalted()  returns FALSE (0000ms, 0607ms total)
T0FE0 001:008 JLINK_IsHalted()  returns FALSE (0000ms, 0607ms total)
T0FE0 001:010 JLINK_IsHalted()  returns FALSE (0000ms, 0607ms total)
T0FE0 001:012 JLINK_IsHalted()  returns FALSE (0000ms, 0607ms total)
T0FE0 001:014 JLINK_IsHalted()  returns FALSE (0000ms, 0607ms total)
T0FE0 001:016 JLINK_IsHalted()  returns FALSE (0000ms, 0607ms total)
T0FE0 001:017 JLINK_IsHalted()  returns FALSE (0000ms, 0607ms total)
T0FE0 001:019 JLINK_IsHalted()  returns TRUE (0001ms, 0608ms total)
T0FE0 001:020 JLINK_ReadReg(R15 (PC))  returns 0x10000000 (0000ms, 0607ms total)
T0FE0 001:020 JLINK_ClrBPEx(BPHandle = 0x0000000A)  returns 0x00 (0000ms, 0607ms total)
T0FE0 001:020 JLINK_ReadReg(R0)  returns 0xD2968294 (0000ms, 0607ms total)
T0FE0 001:021 JLINK_WriteReg(R0, 0x00000003)  returns 0x00 (0000ms, 0607ms total)
T0FE0 001:021 JLINK_WriteReg(R1, 0x00000000)  returns 0x00 (0000ms, 0607ms total)
T0FE0 001:021 JLINK_WriteReg(R2, 0x00000A84)  returns 0x00 (0000ms, 0607ms total)
T0FE0 001:021 JLINK_WriteReg(R3, 0x04C11DB7)  returns 0x00 (0000ms, 0607ms total)
T0FE0 001:021 JLINK_WriteReg(R4, 0x00000000)  returns 0x00 (0000ms, 0607ms total)
T0FE0 001:021 JLINK_WriteReg(R5, 0x00000000)  returns 0x00 (0000ms, 0607ms total)
T0FE0 001:021 JLINK_WriteReg(R6, 0x00000000)  returns 0x00 (0000ms, 0607ms total)
T0FE0 001:021 JLINK_WriteReg(R7, 0x00000000)  returns 0x00 (0000ms, 0607ms total)
T0FE0 001:021 JLINK_WriteReg(R8, 0x00000000)  returns 0x00 (0000ms, 0607ms total)
T0FE0 001:021 JLINK_WriteReg(R9, 0x10000168)  returns 0x00 (0000ms, 0607ms total)
T0FE0 001:021 JLINK_WriteReg(R10, 0x00000000)  returns 0x00 (0000ms, 0607ms total)
T0FE0 001:021 JLINK_WriteReg(R11, 0x00000000)  returns 0x00 (0000ms, 0607ms total)
T0FE0 001:021 JLINK_WriteReg(R12, 0x00000000)  returns 0x00 (0000ms, 0607ms total)
T0FE0 001:021 JLINK_WriteReg(R13 (SP), 0x10000FE0)  returns 0x00 (0000ms, 0607ms total)
T0FE0 001:021 JLINK_WriteReg(R14, 0x10000001)  returns 0x00 (0001ms, 0608ms total)
T0FE0 001:022 JLINK_WriteReg(R15 (PC), 0x10000060)  returns 0x00 (0000ms, 0608ms total)
T0FE0 001:022 JLINK_WriteReg(XPSR, 0x01000000)  returns 0x00 (0000ms, 0608ms total)
T0FE0 001:022 JLINK_WriteReg(MSP, 0x10000FE0)  returns 0x00 (0000ms, 0608ms total)
T0FE0 001:022 JLINK_WriteReg(PSP, 0x10000FE0)  returns 0x00 (0000ms, 0608ms total)
T0FE0 001:022 JLINK_WriteReg(CFBP, 0x00000000)  returns 0x00 (0000ms, 0608ms total)
T0FE0 001:022 JLINK_SetBPEx(Addr = 0x10000000, Type = 0xFFFFFFF2)  returns 0x0000000B (0000ms, 0608ms total)
T0FE0 001:022 JLINK_Go() -- CPU_WriteMem(4 bytes @ 0xE0002000) -- CPU_ReadMem(4 bytes @ 0xE0001000) -- CPU_WriteMem(4 bytes @ 0xE0001000) (0003ms, 0611ms total)
T0FE0 001:025 JLINK_IsHalted()  returns TRUE (0002ms, 0613ms total)
T0FE0 001:027 JLINK_ReadReg(R15 (PC))  returns 0x10000000 (0000ms, 0611ms total)
T0FE0 001:027 JLINK_ClrBPEx(BPHandle = 0x0000000B)  returns 0x00 (0000ms, 0611ms total)
T0FE0 001:027 JLINK_ReadReg(R0)  returns 0x00000000 (0000ms, 0611ms total)
T0FE0 001:081 JLINK_WriteMem(0x10000000, 0x0002 Bytes, ...) - Data: FE E7 -- CPU_WriteMem(2 bytes @ 0x10000000)  returns 0x02 (0000ms, 0611ms total)
T0FE0 001:081 JLINK_SetResetType(JLINKARM_RESET_TYPE_NORMAL)  returns JLINKARM_RESET_TYPE_NORMAL (0000ms, 0611ms total)
T0FE0 001:081 JLINK_Reset() -- CPU_ReadMem(4 bytes @ 0x10000000) -- CPU_WriteMem(4 bytes @ 0x10000000) -- CPU_WriteMem(4 bytes @ 0xE000EDF0) -- CPU_WriteMem(4 bytes @ 0xE000EDFC) >0x35 TIF> -- CPU_WriteMem(4 bytes @ 0xE000ED0C) -- CPU_ReadMem(4 bytes @ 0xE000EDF0) -- CPU_ReadMem(4 bytes @ 0xE000EDF0) -- CPU_WriteMem(4 bytes @ 0xE000EDF0) -- CPU_WriteMem(4 bytes @ 0xE000EDFC) -- CPU is running -- CPU_ReadMem(4 bytes @ 0xE000EDF0) -- CPU_WriteMem(4 bytes @ 0xE000EDFC) -- CPU_WriteMem(4 bytes @ 0xE000EDFC)
 -- CPU_WriteMem(4 bytes @ 0xE000EDFC) -- CPU_WriteMem(4 bytes @ 0xE0001020) -- CPU_WriteMem(4 bytes @ 0xE0001024) -- CPU_WriteMem(4 bytes @ 0xE0001028) -- CPU_WriteMem(4 bytes @ 0xE0002008) -- CPU_WriteMem(4 bytes @ 0xE000200C) -- CPU_WriteMem(4 bytes @ 0xE0002010) -- CPU_WriteMem(4 bytes @ 0xE0002014) -- CPU_ReadMem(4 bytes @ 0xE0001000) -- CPU_WriteMem(4 bytes @ 0xE0001000) -- CPU_WriteMem(4 bytes @ 0xE000EDFC) -- CPU_WriteMem(4 bytes @ 0xE0001028) -- CPU_ReadMem(4 bytes @ 0x00000004)
 -- CPU_ReadMem(4 bytes @ 0xE0002000) -- CPU_ReadMem(4 bytes @ 0xE0002008) -- CPU_ReadMem(4 bytes @ 0xE000200C) -- CPU_ReadMem(4 bytes @ 0xE0002010) -- CPU_ReadMem(4 bytes @ 0xE0002014) -- CPU_WriteMem(4 bytes @ 0xE0002000) -- CPU_WriteMem(4 bytes @ 0xE0002008) -- CPU_WriteMem(4 bytes @ 0xE000200C) -- CPU_WriteMem(4 bytes @ 0xE0002010) -- CPU_WriteMem(4 bytes @ 0xE0002014) -- CPU_ReadMem(4 bytes @ 0xE0001000) -- CPU_WriteMem(4 bytes @ 0xE0001000) -- CPU_WriteMem(4 bytes @ 0xE0002000)
 -- CPU_WriteMem(4 bytes @ 0xE0002008) -- CPU_WriteMem(4 bytes @ 0xE000200C) -- CPU_WriteMem(4 bytes @ 0xE0002010) -- CPU_WriteMem(4 bytes @ 0xE0002014) -- CPU_WriteMem(4 bytes @ 0xE0002000) -- CPU_ReadMem(4 bytes @ 0xE000EDFC) -- CPU_ReadMem(4 bytes @ 0xE0001000) -- CPU_WriteMem(4 bytes @ 0xE0001000) (0232ms, 0843ms total)
T0FE0 001:313 JLINK_Go() -- CPU_ReadMem(4 bytes @ 0xE0001000) -- CPU_WriteMem(4 bytes @ 0xE0001000) -- CPU_WriteMem(4 bytes @ 0xE0002008) -- CPU_WriteMem(4 bytes @ 0xE000200C) -- CPU_WriteMem(4 bytes @ 0xE0002010) -- CPU_WriteMem(4 bytes @ 0xE0002014) -- CPU_WriteMem(4 bytes @ 0xE0001004) (0001ms, 0844ms total)
T0FE0 001:335 JLINK_Close() -- CPU is running -- CPU_WriteMem(4 bytes @ 0xE0002008) -- CPU is running -- CPU_WriteMem(4 bytes @ 0xE000200C) -- CPU is running -- CPU_WriteMem(4 bytes @ 0xE0002010) -- CPU is running -- CPU_WriteMem(4 bytes @ 0xE0002014) (0010ms, 0855ms total)
T0FE0 001:335  (0010ms, 0855ms total)
T0FE0 001:335 Closed (0010ms, 0855ms total)
